time	V(n001)	V(n002)	V(n003)	I(C1)	I(C2)	I(R1)
0.000000000000000e+000	0.000000e+000	0.000000e+000	0.000000e+000	0.000000e+000	0.000000e+000	0.000000e+000
7.142857142857145e-010	7.142857e-001	3.303742e-006	-6.673936e-011	7.142792e-004	3.303808e-009	7.142825e-004
1.428571428571429e-009	1.428571e+000	1.145844e-005	-1.077547e-011	1.428549e-003	1.145845e-008	1.428560e-003
2.142857142857144e-009	2.142857e+000	2.446410e-005	1.678917e-010	2.142808e-003	2.446393e-008	2.142833e-003
2.857142857142858e-009	2.857143e+000	4.232072e-005	4.692621e-010	2.857058e-003	4.232025e-008	2.857101e-003
3.571428571428572e-009	3.571429e+000	6.502830e-005	8.933357e-010	3.571299e-003	6.502741e-008	3.571364e-003
4.285714285714288e-009	4.285714e+000	9.258684e-005	1.440113e-009	4.285529e-003	9.258540e-008	4.285622e-003
5.000000000000000e-009	5.000000e+000	1.249963e-004	2.109593e-009	4.999750e-003	1.249942e-007	4.999875e-003
2.376870030391873e-007	5.000000e+000	1.171644e-002	2.149242e-005	4.976589e-003	1.169494e-005	4.988284e-003
4.703740060783747e-007	5.000000e+000	2.325066e-002	7.145069e-005	4.953570e-003	2.317920e-005	4.976749e-003
7.030610091175619e-007	5.000000e+000	3.472766e-002	1.498769e-004	4.930695e-003	3.457778e-005	4.965272e-003
9.357480121567493e-007	5.000000e+000	4.614744e-002	2.567711e-004	4.907962e-003	4.589066e-005	4.953853e-003
1.168435015195937e-006	5.000000e+000	5.751000e-002	3.921332e-004	4.885372e-003	5.711786e-005	4.942490e-003
1.401122018235124e-006	5.000000e+000	6.881534e-002	5.559633e-004	4.862925e-003	6.825937e-005	4.931185e-003
1.633809021274311e-006	5.000000e+000	8.006345e-002	7.482613e-004	4.840621e-003	7.931519e-005	4.919936e-003
2.610371521274311e-006	5.000000e+000	1.268453e-001	1.765084e-003	4.748074e-003	1.250802e-004	4.873155e-003
3.586934021274311e-006	5.000000e+000	1.727718e-001	3.203796e-003	4.657660e-003	1.695680e-004	4.827228e-003
4.563496521274311e-006	5.000000e+000	2.178259e-001	5.070609e-003	4.569419e-003	2.127553e-004	4.782174e-003
5.540059021274311e-006	5.000000e+000	2.620286e-001	7.352986e-003	4.483296e-003	2.546756e-004	4.737971e-003
6.516621521274311e-006	5.000000e+000	3.054003e-001	1.003871e-002	4.399238e-003	2.953616e-004	4.694600e-003
7.493184021274311e-006	5.000000e+000	3.479610e-001	1.311590e-002	4.317194e-003	3.348451e-004	4.652039e-003
8.469746521274312e-006	5.000000e+000	3.897301e-001	1.657294e-002	4.237113e-003	3.731571e-004	4.610270e-003
9.446309021274313e-006	5.000000e+000	4.307265e-001	2.039855e-002	4.158946e-003	4.103279e-004	4.569273e-003
1.042287152127431e-005	5.000000e+000	4.709686e-001	2.458173e-002	4.082644e-003	4.463869e-004	4.529031e-003
1.139943402127431e-005	5.000000e+000	5.104745e-001	2.911175e-002	4.008163e-003	4.813627e-004	4.489526e-003
1.237599652127432e-005	5.000000e+000	5.492617e-001	3.397819e-002	3.935455e-003	5.152835e-004	4.450738e-003
1.335255902127432e-005	5.000000e+000	5.873473e-001	3.917087e-002	3.864476e-003	5.481765e-004	4.412653e-003
1.432912152127432e-005	5.000000e+000	6.247480e-001	4.467988e-002	3.795184e-003	5.800681e-004	4.375252e-003
1.530568402127432e-005	5.000000e+000	6.614800e-001	5.049556e-002	3.727535e-003	6.109845e-004	4.338520e-003
1.725880902127432e-005	5.000000e+000	7.330011e-001	6.300960e-002	3.597007e-003	6.699915e-004	4.266999e-003
1.921193402127432e-005	5.000000e+000	8.020328e-001	7.664069e-002	3.472575e-003	7.253921e-004	4.197967e-003
2.116505902127432e-005	5.000000e+000	8.686910e-001	9.132018e-002	3.353938e-003	7.773709e-004	4.131309e-003
2.409474652127433e-005	5.000000e+000	9.644684e-001	1.151637e-001	3.186227e-003	8.493047e-004	4.035532e-003
2.702443402127433e-005	5.000000e+000	1.055503e+000	1.410145e-001	3.030010e-003	9.144879e-004	3.944498e-003
3.009363044984576e-005	5.000000e+000	1.145429e+000	1.704517e-001	2.879593e-003	9.749776e-004	3.854571e-003
3.316282687841720e-005	5.000000e+000	1.231580e+000	2.012600e-001	2.738100e-003	1.030320e-003	3.768420e-003
3.623202330698862e-005	5.000000e+000	1.313954e+000	2.334394e-001	2.605531e-003	1.080515e-003	3.686045e-003
3.930121973556006e-005	5.000000e+000	1.392553e+000	2.669899e-001	2.481885e-003	1.125563e-003	3.607447e-003
4.237041616413149e-005	5.000000e+000	1.467375e+000	3.019116e-001	2.367162e-003	1.165463e-003	3.532625e-003
4.543961259270292e-005	5.000000e+000	1.538420e+000	3.382044e-001	2.261363e-003	1.200216e-003	3.461579e-003
4.850880902127435e-005	5.000000e+000	1.605690e+000	3.758684e-001	2.164488e-003	1.229822e-003	3.394310e-003
5.339162152127435e-005	5.000000e+000	1.706383e+000	4.377407e-001	2.024975e-003	1.268642e-003	3.293617e-003
5.827443402127436e-005	5.000000e+000	1.801962e+000	5.005818e-001	1.896657e-003	1.301381e-003	3.198038e-003
6.315724652127436e-005	5.000000e+000	1.892428e+000	5.643918e-001	1.779535e-003	1.328037e-003	3.107572e-003
6.804005902127437e-005	5.000000e+000	1.977781e+000	6.291707e-001	1.673608e-003	1.348611e-003	3.022219e-003
7.292287152127437e-005	5.000000e+000	2.058021e+000	6.949184e-001	1.578877e-003	1.363102e-003	2.941979e-003
7.780568402127439e-005	5.000000e+000	2.133147e+000	7.616350e-001	1.495341e-003	1.371512e-003	2.866853e-003
8.268849652127438e-005	5.000000e+000	2.203160e+000	8.293204e-001	1.423001e-003	1.373839e-003	2.796840e-003
8.868738044984581e-005	5.000000e+000	2.284935e+000	9.122512e-001	1.342381e-003	1.372684e-003	2.715065e-003
9.468626437841725e-005	5.000000e+000	2.363107e+000	9.945484e-001	1.268333e-003	1.368559e-003	2.636893e-003
1.006851483069887e-004	5.000000e+000	2.437677e+000	1.076212e+000	1.200859e-003	1.361464e-003	2.562323e-003
1.066840322355601e-004	5.000000e+000	2.508642e+000	1.157242e+000	1.139957e-003	1.351400e-003	2.491358e-003
1.126829161641316e-004	5.000000e+000	2.576005e+000	1.237639e+000	1.085629e-003	1.338366e-003	2.423995e-003
1.186818000927030e-004	5.000000e+000	2.639765e+000	1.317403e+000	1.037873e-003	1.322362e-003	2.360235e-003
1.246806840212744e-004	5.000000e+000	2.699921e+000	1.396532e+000	9.966897e-004	1.303389e-003	2.300079e-003
1.330512197355602e-004	5.000000e+000	2.780126e+000	1.504712e+000	9.444601e-004	1.275414e-003	2.219874e-003
1.414217554498459e-004	5.000000e+000	2.857028e+000	1.610333e+000	8.962775e-004	1.246695e-003	2.142972e-003
1.497922911641316e-004	5.000000e+000	2.930628e+000	1.713397e+000	8.521419e-004	1.217230e-003	2.069372e-003
1.581628268784173e-004	5.000000e+000	3.000925e+000	1.813904e+000	8.120533e-004	1.187021e-003	1.999075e-003
1.665333625927031e-004	5.000000e+000	3.067921e+000	1.911853e+000	7.760117e-004	1.156068e-003	1.932079e-003
1.749038983069888e-004	5.000000e+000	3.131614e+000	2.007245e+000	7.440171e-004	1.124369e-003	1.868386e-003
1.832744340212745e-004	5.000000e+000	3.192005e+000	2.100079e+000	7.160694e-004	1.091926e-003	1.807995e-003
1.949931840212745e-004	5.000000e+000	3.272961e+000	2.225115e+000	6.791928e-004	1.047846e-003	1.727039e-003
2.067119340212745e-004	5.000000e+000	3.350424e+000	2.345412e+000	6.445636e-004	1.005012e-003	1.649576e-003
2.184306840212745e-004	5.000000e+000	3.424394e+000	2.460970e+000	6.121818e-004	9.634240e-004	1.575606e-003
2.301494340212745e-004	5.000000e+000	3.494871e+000	2.571789e+000	5.820476e-004	9.230817e-004	1.505129e-003
2.418681840212745e-004	5.000000e+000	3.561854e+000	2.677869e+000	5.541608e-004	8.839852e-004	1.438146e-003
2.535869340212746e-004	5.000000e+000	3.625344e+000	2.779209e+000	5.285214e-004	8.461345e-004	1.374656e-003
2.653056840212745e-004	5.000000e+000	3.685341e+000	2.875811e+000	5.051295e-004	8.095297e-004	1.314659e-003
2.662822465212745e-004	5.000000e+000	3.690264e+000	2.883702e+000	5.031739e-004	8.065619e-004	1.309736e-003
2.874876036641317e-004	5.000000e+000	3.791124e+000	3.045950e+000	4.637014e-004	7.451741e-004	1.208876e-003
3.086929608069889e-004	5.000000e+000	3.885389e+000	3.197707e+000	4.269288e-004	6.876820e-004	1.114611e-003
3.298983179498461e-004	5.000000e+000	3.973058e+000	3.338973e+000	3.928559e-004	6.340856e-004	1.026941e-003
3.511036750927032e-004	5.000000e+000	4.054132e+000	3.469747e+000	3.614827e-004	5.843850e-004	9.458677e-004
3.723090322355604e-004	5.000000e+000	4.128610e+000	3.590030e+000	3.328094e-004	5.385800e-004	8.713894e-004
3.935143893784176e-004	5.000000e+000	4.196493e+000	3.699823e+000	3.068358e-004	4.966708e-004	8.035065e-004
4.147197465212747e-004	5.000000e+000	4.257781e+000	3.799124e+000	2.835620e-004	4.586572e-004	7.422192e-004
4.269026398753783e-004	5.000000e+000	4.291371e+000	3.853459e+000	2.707175e-004	4.379118e-004	7.086294e-004
4.390855332294819e-004	5.000000e+000	4.323591e+000	3.905580e+000	2.583986e-004	4.180108e-004	6.764094e-004
4.512684265835855e-004	5.000000e+000	4.354441e+000	3.955487e+000	2.466051e-004	3.989542e-004	6.455593e-004
4.634513199376892e-004	5.000000e+000	4.383921e+000	4.003179e+000	2.353370e-004	3.807420e-004	6.160791e-004
4.756342132917928e-004	5.000000e+000	4.412031e+000	4.048657e+000	2.245945e-004	3.633743e-004	5.879687e-004
4.878171066458964e-004	5.000000e+000	4.438772e+000	4.091921e+000	2.143774e-004	3.468509e-004	5.612283e-004
5.000000000000000e-004	5.000000e+000	4.464142e+000	4.132970e+000	2.046858e-004	3.311719e-004	5.358577e-004
5.000050000000001e-004	0.000000e+000	4.464027e+000	4.132987e+000	-4.795068e-003	3.310404e-004	-4.464027e-003
5.007201568579634e-004	0.000000e+000	4.430089e+000	4.135171e+000	-4.725007e-003	2.949181e-004	-4.430089e-003
5.014353137159267e-004	0.000000e+000	4.396610e+000	4.137119e+000	-4.656100e-003	2.594904e-004	-4.396610e-003
5.021504705738900e-004	0.000000e+000	4.363590e+000	4.138833e+000	-4.588347e-003	2.247572e-004	-4.363590e-003
5.028656274318532e-004	0.000000e+000	4.331030e+000	4.140312e+000	-4.521749e-003	1.907186e-004	-4.331031e-003
5.035807842898166e-004	0.000000e+000	4.298930e+000	4.141556e+000	-4.456305e-003	1.573745e-004	-4.298931e-003
5.042959411477798e-004	0.000000e+000	4.267290e+000	4.142565e+000	-4.392015e-003	1.247250e-004	-4.267290e-003
5.050110980057432e-004	0.000000e+000	4.236109e+000	4.143339e+000	-4.328880e-003	9.277012e-005	-4.236109e-003
5.059876605057432e-004	0.000000e+000	4.194247e+000	4.144037e+000	-4.244457e-003	5.020998e-005	-4.194247e-003
5.069642230057432e-004	0.000000e+000	4.153200e+000	4.144326e+000	-4.162074e-003	8.873967e-006	-4.153199e-003
5.079407855057432e-004	0.000000e+000	4.112947e+000	4.144217e+000	-4.081678e-003	-3.126937e-005	-4.112947e-003
5.089173480057432e-004	0.000000e+000	4.073470e+000	4.143721e+000	-4.003219e-003	-7.025070e-005	-4.073470e-003
5.098939105057432e-004	0.000000e+000	4.034750e+000	4.142850e+000	-3.926650e-003	-1.080999e-004	-4.034750e-003
5.108704730057432e-004	0.000000e+000	3.996769e+000	4.141615e+000	-3.851923e-003	-1.448461e-004	-3.996769e-003
5.118470355057432e-004	0.000000e+000	3.959508e+000	4.140026e+000	-3.778991e-003	-1.805178e-004	-3.959509e-003
5.138001605057432e-004	0.000000e+000	3.887082e+000	4.135829e+000	-3.638335e-003	-2.487472e-004	-3.887082e-003
5.157532855057432e-004	0.000000e+000	3.817337e+000	4.130339e+000	-3.504336e-003	-3.130014e-004	-3.817337e-003
5.177064105057432e-004	0.000000e+000	3.750147e+000	4.123630e+000	-3.376665e-003	-3.734827e-004	-3.750147e-003
5.206360980057432e-004	0.000000e+000	3.653892e+000	4.111440e+000	-3.196343e-003	-4.575486e-004	-3.653891e-003
5.235657855057432e-004	0.000000e+000	3.562732e+000	4.096897e+000	-3.028567e-003	-5.341650e-004	-3.562732e-003
5.267744908628861e-004	0.000000e+000	3.469195e+000	4.078007e+000	-2.860382e-003	-6.088124e-004	-3.469195e-003
5.299831962200289e-004	0.000000e+000	3.380018e+000	4.057328e+000	-2.702707e-003	-6.773106e-004	-3.380018e-003
5.331919015771718e-004	0.000000e+000	3.295201e+000	4.034861e+000	-2.555541e-003	-7.396597e-004	-3.295201e-003
5.364006069343146e-004	0.000000e+000	3.214745e+000	4.010605e+000	-2.418886e-003	-7.958597e-004	-3.214745e-003
5.396093122914575e-004	0.000000e+000	3.138650e+000	3.984561e+000	-2.292740e-003	-8.459105e-004	-3.138650e-003
5.428180176486003e-004	0.000000e+000	3.066916e+000	3.956728e+000	-2.177103e-003	-8.898123e-004	-3.066916e-003
5.460267230057432e-004	0.000000e+000	2.999542e+000	3.927107e+000	-2.071977e-003	-9.275649e-004	-2.999542e-003
5.506305176486003e-004	0.000000e+000	2.908743e+000	3.882530e+000	-1.934956e-003	-9.737871e-004	-2.908743e-003
5.552343122914575e-004	0.000000e+000	2.822710e+000	3.836688e+000	-1.808731e-003	-1.013979e-003	-2.822710e-003
5.598381069343146e-004	0.000000e+000	2.741443e+000	3.789583e+000	-1.693303e-003	-1.048140e-003	-2.741443e-003
5.644419015771718e-004	0.000000e+000	2.664942e+000	3.741213e+000	-1.588671e-003	-1.076271e-003	-2.664942e-003
5.690456962200289e-004	0.000000e+000	2.593208e+000	3.691580e+000	-1.494836e-003	-1.098372e-003	-2.593208e-003
5.736494908628861e-004	0.000000e+000	2.526240e+000	3.640682e+000	-1.411798e-003	-1.114442e-003	-2.526240e-003
5.782532855057432e-004	0.000000e+000	2.464038e+000	3.588520e+000	-1.339556e-003	-1.124482e-003	-2.464038e-003
5.838336426486003e-004	0.000000e+000	2.392569e+000	3.525009e+000	-1.260129e-003	-1.132440e-003	-2.392569e-003
5.894139997914575e-004	0.000000e+000	2.324403e+000	3.461614e+000	-1.187192e-003	-1.137211e-003	-2.324403e-003
5.949943569343146e-004	0.000000e+000	2.259539e+000	3.398335e+000	-1.120743e-003	-1.138796e-003	-2.259539e-003
6.005747140771718e-004	0.000000e+000	2.197977e+000	3.335171e+000	-1.060783e-003	-1.137194e-003	-2.197977e-003
6.061550712200289e-004	0.000000e+000	2.139718e+000	3.272122e+000	-1.007313e-003	-1.132405e-003	-2.139718e-003
6.117354283628862e-004	0.000000e+000	2.084761e+000	3.209189e+000	-9.603315e-004	-1.124429e-003	-2.084760e-003
6.173157855057433e-004	0.000000e+000	2.033106e+000	3.146372e+000	-9.198393e-004	-1.113266e-003	-2.033106e-003
6.247097587200290e-004	0.000000e+000	1.967762e+000	3.064375e+000	-8.711496e-004	-1.096613e-003	-1.967762e-003
6.321037319343147e-004	0.000000e+000	1.905116e+000	2.983895e+000	-8.263381e-004	-1.078778e-003	-1.905116e-003
6.394977051486005e-004	0.000000e+000	1.845168e+000	2.904932e+000	-7.854047e-004	-1.059764e-003	-1.845168e-003
6.468916783628862e-004	0.000000e+000	1.787918e+000	2.827486e+000	-7.483495e-004	-1.039568e-003	-1.787918e-003
6.542856515771719e-004	0.000000e+000	1.733365e+000	2.751557e+000	-7.151725e-004	-1.018192e-003	-1.733365e-003
6.616796247914576e-004	0.000000e+000	1.681509e+000	2.677145e+000	-6.858736e-004	-9.956359e-004	-1.681510e-003
6.690735980057433e-004	0.000000e+000	1.632352e+000	2.604251e+000	-6.604529e-004	-9.718990e-004	-1.632352e-003
6.805133301486004e-004	0.000000e+000	1.559764e+000	2.495295e+000	-6.242319e-004	-9.355317e-004	-1.559764e-003
6.919530622914576e-004	0.000000e+000	1.490405e+000	2.390277e+000	-5.905328e-004	-8.998722e-004	-1.490405e-003
7.033927944343147e-004	0.000000e+000	1.424276e+000	2.289197e+000	-5.593556e-004	-8.649204e-004	-1.424276e-003
7.148325265771719e-004	0.000000e+000	1.361377e+000	2.192053e+000	-5.307002e-004	-8.306765e-004	-1.361377e-003
7.262722587200290e-004	0.000000e+000	1.301707e+000	2.098848e+000	-5.045667e-004	-7.971404e-004	-1.301707e-003
7.377119908628863e-004	0.000000e+000	1.245267e+000	2.009579e+000	-4.809551e-004	-7.643120e-004	-1.245267e-003
7.491517230057434e-004	0.000000e+000	1.192057e+000	1.924248e+000	-4.598654e-004	-7.321915e-004	-1.192057e-003
7.561271694343148e-004	0.000000e+000	1.160500e+000	1.873905e+000	-4.470945e-004	-7.134053e-004	-1.160500e-003
7.631026158628863e-004	0.000000e+000	1.129750e+000	1.824785e+000	-4.347151e-004	-6.950351e-004	-1.129750e-003
7.700780622914577e-004	0.000000e+000	1.099808e+000	1.776888e+000	-4.227271e-004	-6.770807e-004	-1.099808e-003
7.770535087200291e-004	0.000000e+000	1.070673e+000	1.730215e+000	-4.111305e-004	-6.595423e-004	-1.070673e-003
7.840289551486006e-004	0.000000e+000	1.042345e+000	1.684765e+000	-3.999255e-004	-6.424198e-004	-1.042345e-003
7.910044015771720e-004	0.000000e+000	1.014825e+000	1.640538e+000	-3.891118e-004	-6.257132e-004	-1.014825e-003
7.979798480057434e-004	0.000000e+000	9.881121e-001	1.597535e+000	-3.786896e-004	-6.094225e-004	-9.881121e-004
7.989564105057434e-004	0.000000e+000	9.844210e-001	1.591594e+000	-3.772478e-004	-6.071732e-004	-9.844210e-004
8.212778390771720e-004	0.000000e+000	9.050107e-001	1.463517e+000	-3.465041e-004	-5.585066e-004	-9.050107e-004
8.435992676486007e-004	0.000000e+000	8.309879e-001	1.344078e+000	-3.178977e-004	-5.130902e-004	-8.309879e-004
8.659206962200292e-004	0.000000e+000	7.623526e-001	1.233277e+000	-2.914287e-004	-4.709239e-004	-7.623526e-004
8.882421247914578e-004	0.000000e+000	6.991049e-001	1.131113e+000	-2.670971e-004	-4.320078e-004	-6.991049e-004
9.105635533628864e-004	0.000000e+000	6.412447e-001	1.037586e+000	-2.449029e-004	-3.963418e-004	-6.412447e-004
9.328849819343150e-004	0.000000e+000	5.887720e-001	9.526979e-001	-2.248460e-004	-3.639260e-004	-5.887720e-004
9.552064105057436e-004	0.000000e+000	5.416868e-001	8.764471e-001	-2.069266e-004	-3.347603e-004	-5.416868e-004
9.616040661471557e-004	0.000000e+000	5.286276e-001	8.553199e-001	-2.019354e-004	-3.266923e-004	-5.286276e-004
9.680017217885678e-004	0.000000e+000	5.158656e-001	8.346731e-001	-1.970580e-004	-3.188076e-004	-5.158656e-004
9.743993774299800e-004	0.000000e+000	5.034006e-001	8.145068e-001	-1.922944e-004	-3.111062e-004	-5.034006e-004
9.807970330713922e-004	0.000000e+000	4.912328e-001	7.948209e-001	-1.876447e-004	-3.035881e-004	-4.912328e-004
9.871946887128043e-004	0.000000e+000	4.793622e-001	7.756155e-001	-1.831088e-004	-2.962533e-004	-4.793622e-004
9.935923443542165e-004	0.000000e+000	4.677886e-001	7.568905e-001	-1.786868e-004	-2.891019e-004	-4.677886e-004
9.999899999956286e-004	0.000000e+000	4.565122e-001	7.386460e-001	-1.743785e-004	-2.821337e-004	-4.565122e-004
9.999949999956286e-004	0.000000e+000	4.565035e-001	7.386318e-001	-1.743752e-004	-2.821283e-004	-4.565035e-004
1.000000000000000e-003	0.000000e+000	4.564948e-001	7.386177e-001	-1.743719e-004	-2.821229e-004	-4.564948e-004
