Freq.	V(n007)/10	V(n009)/10	V(n011)/10	V(n019)/10	V(n020)/10	V(n024)/10
1.00000000000000e+001	(-2.08282439196099e+001dB,2.30078164043620e+000°)	(-2.08189672696186e+001dB,4.09652407317561e+000°)	(-2.08289762322040e+001dB,5.01660348954929e-001°)	(-2.59522325212765e+001dB,5.64706218251251e+001°)	(-2.58464816324781e+001dB,5.57202149620525e+001°)	(-2.57347142798559e+001dB,5.50003728838145e+001°)
1.02329299228075e+001	(-2.08280079148297e+001dB,2.31618666349063e+000°)	(-2.08181283142261e+001dB,4.15357406497834e+000°)	(-2.08289420000263e+001dB,4.75171371133904e-001°)	(-2.58243392956466e+001dB,5.59121475705919e+001°)	(-2.57156202647105e+001dB,5.51267545697092e+001°)	(-2.56004608159365e+001dB,5.43730489229449e+001°)
1.04712854805090e+001	(-2.08277645633479e+001dB,2.33281685928302e+000°)	(-2.08172537426266e+001dB,4.21280474346613e+000°)	(-2.08289099234277e+001dB,4.48934122648611e-001°)	(-2.56985550474392e+001dB,5.53516226484404e+001°)	(-2.55868501251474e+001dB,5.45297968228177e+001°)	(-2.54682556977260e+001dB,5.37407866228362e+001°)
1.07151930523761e+001	(-2.08275133504514e+001dB,2.35068086982330e+000°)	(-2.08163417223260e+001dB,4.27424600877758e+000°)	(-2.08288799344165e+001dB,4.22934708601106e-001°)	(-2.55749028211814e+001dB,5.47893834654124e+001°)	(-2.54601985880547e+001dB,5.39296405811561e+001°)	(-2.53381295401137e+001dB,5.31038441780581e+001°)
1.09647819614319e+001	(-2.08272537448840e+001dB,2.36978797667213e+000°)	(-2.08153903435541e+001dB,4.33792882437890e+000°)	(-2.08288519694245e+001dB,3.97159359259555e-001°)	(-2.54534036721803e+001dB,5.42257759632920e+001°)	(-2.53356912635370e+001dB,5.33265947965230e+001°)	(-2.52101113977444e+001dB,5.24624902141828e+001°)
1.12201845430196e+001	(-2.08269851977339e+001dB,2.39014810496063e+000°)	(-2.08143976154200e+001dB,4.40388522596117e+000°)	(-2.08288259691729e+001dB,3.71594422831076e-001°)	(-2.53340765734210e+001dB,5.36611549814147e+001°)	(-2.52133518977473e+001dB,5.27209779570810e+001°)	(-2.50842286587721e+001dB,5.18170033163056e+001°)
1.14815362149688e+001	(-2.08267071412837e+001dB,2.41177182767898e+000°)	(-2.08133614619167e+001dB,4.47214833037342e+000°)	(-2.08288018785463e+001dB,3.46226358293909e-001°)	(-2.52169383288482e+001dB,5.30958835715128e+001°)	(-2.50932022783623e+001dB,5.21131174797028e+001°)	(-2.49605069425889e+001dB,5.11676715022428e+001°)
1.17489755493953e+001	(-2.08264189878222e+001dB,2.43467037022449e+000°)	(-2.08122797177649e+001dB,4.54275234456042e+000°)	(-2.08287796464768e+001dB,3.21041728283095e-001°)	(-2.51020034937052e+001dB,5.25303322682557e+001°)	(-2.49752621460616e+001dB,5.15033490528338e+001°)	(-2.48389700022986e+001dB,5.05147916419901e+001°)
1.20226443461741e+001	(-2.08261201284158e+001dB,2.45885561522137e+000°)	(-2.08111501240923e+001dB,4.61573257447091e+000°)	(-2.08287592258354e+001dB,2.96027192028268e-001°)	(-2.49892843025571e+001dB,5.19648783193206e+001°)	(-2.48595491127151e+001dB,5.08920159329078e+001°)	(-2.47196396326942e+001dB,4.98586688255633e+001°)
1.23026877081238e+001	(-2.08258099316357e+001dB,2.48434010759362e+000°)	(-2.08099703239392e+001dB,4.69112543390032e+000°)	(-2.08287405733323e+001dB,2.71169498340568e-001°)	(-2.48787906055691e+001dB,5.13999048792821e+001°)	(-2.47460785869453e+001dB,5.02794681978516e+001°)	(-2.46025355844682e+001dB,4.91996156818659e+001°)
1.25892541179417e+001	(-2.08254877422401e+001dB,2.51113705989832e+000°)	(-2.08087378575848e+001dB,4.76896845323113e+000°)	(-2.08287236494257e+001dB,2.46455478642211e-001°)	(-2.47705298135456e+001dB,5.08358001720135e+001°)	(-2.46348637076777e+001dB,4.96660619616911e+001°)	(-2.44876754853573e+001dB,4.85379516517497e+001°)
1.28824955169313e+001	(-2.08251528798069e+001dB,2.53926035791243e+000°)	(-2.08074501576858e+001dB,4.84930028802747e+000°)	(-2.08287084182377e+001dB,2.21872040039109e-001°)	(-2.46645068521643e+001dB,5.02729566266509e+001°)	(-2.45259152862367e+001dB,4.90521585547060e+001°)	(-2.43750747688749e+001dB,4.78740022189279e+001°)
1.31825673855641e+001	(-2.08248046373158e+001dB,2.56872456647044e+000°)	(-2.08061045442210e+001dB,4.93216072743863e+000°)	(-2.08286948474786e+001dB,1.97406158429500e-001°)	(-2.45607241257594e+001dB,4.97117699924753e+001°)	(-2.44192417574746e+001dB,4.84381236739795e+001°)	(-2.42647466112349e+001dB,4.72080981028668e+001°)
1.34896288259165e+001	(-2.08244422796765e+001dB,2.59954493554464e+000°)	(-2.08046982192330e+001dB,5.01759070236573e+000°)	(-2.08286829083784e+001dB,1.73044871648373e-001°)	(-2.44591814909262e+001dB,4.91526384383097e+001°)	(-2.43148491403496e+001dB,4.78243265095326e+001°)	(-2.41567018770088e+001dB,4.65405744182104e+001°)
1.38038426460288e+001	(-2.08240650421994e+001dB,2.63173740657307e+000°)	(-2.08032282613610e+001dB,5.10563229333777e+000°)	(-2.08286725756261e+001dB,1.48775272642225e-001°)	(-2.43598762401292e+001dB,4.85959616422051e+001°)	(-2.42127410082861e+001dB,4.72111388515171e+001°)	(-2.40509490739896e+001dB,4.58717698056761e+001°)
1.41253754462275e+001	(-2.08236721290064e+001dB,2.66531861901755e+000°)	(-2.08016916201548e+001dB,5.19632873804297e+000°)	(-2.08286638273158e+001dB,1.24584502671697e-001°)	(-2.42628030954042e+001dB,4.80421398772978e+001°)	(-2.41129184695673e+001dB,4.65989341841754e+001°)	(-2.39474943176599e+001dB,4.52020255396893e+001°)
1.44543977074593e+001	(-2.08232627113798e+001dB,2.70030591715966e+000°)	(-2.08000851101640e+001dB,5.28972443845614e+000°)	(-2.08286566449008e+001dB,1.00459744537583e-001°)	(-2.41679542121549e+001dB,4.74915730997557e+001°)	(-2.40153801579183e+001dB,4.59880867724237e+001°)	(-2.38463413055793e+001dB,4.45316846183009e+001°)
1.47910838816821e+001	(-2.08228359260431e+001dB,2.73671735711753e+000°)	(-2.07984054047934e+001dB,5.38586496749805e+000°)	(-2.08286510131539e+001dB,7.63882158289772e-002°)	(-2.40753191929482e+001dB,4.69446600446982e+001°)	(-2.39201222333488e+001dB,4.53789707470130e+001°)	(-2.37474913019219e+001dB,4.38610908411368e+001°)
1.51356124843621e+001	(-2.08223908733742e+001dB,2.77457171408543e+000°)	(-2.07966490299161e+001dB,5.48479707515860e+000°)	(-2.08286469201356e+001dB,5.23571621875418e-002°)	(-2.39848851111229e+001dB,4.64017973358653e+001°)	(-2.38271383932289e+001dB,4.47719591942357e+001°)	(-2.36509431323013e+001dB,4.31905878812741e+001°)
1.54881661891248e+001	(-2.08219266155444e+001dB,2.81388848978482e+000°)	(-2.07948123572372e+001dB,5.58656869401342e+000°)	(-2.08286443571681e+001dB,2.83538505867324e-002°)	(-2.38966365439384e+001dB,4.58633786146383e+001°)	(-2.37364198934808e+001dB,4.41674232560970e+001°)	(-2.35566931889324e+001dB,4.25205183570079e+001°)
1.58489319246111e+001	(-2.08214421745813e+001dB,2.85468792011740e+000°)	(-2.07928915973989e+001dB,5.69122894405187e+000°)	(-2.08286433188180e+001dB,4.36556262132412e-003°)	(-2.38105556149023e+001dB,4.53297936937695e+001°)	(-2.36479555796772e+001dB,4.35657312467358e+001°)	(-2.34647354460821e+001dB,4.18512229094765e+001°)
1.62181009735893e+001	(-2.08209365303513e+001dB,2.89699098302056e+000°)	(-2.07908827928189e+001dB,5.79882813673923e+000°)	(-2.08286438028838e+001dB,-1.96204121956790e-002°)	(-2.37266220448402e+001dB,4.48014277408794e+001°)	(-2.35617319277507e+001dB,4.29672477907038e+001°)	(-2.33750614856729e+001dB,4.11830392920372e+001°)
1.65958690743756e+001	(-2.08204086184589e+001dB,2.94081940650403e+000°)	(-2.07887818102543e+001dB,5.90941777821851e+000°)	(-2.08286458103917e+001dB,-4.36167831323406e-002°)	(-2.36448132111953e+001dB,4.42786604964126e+001°)	(-2.34777330939338e+001dB,4.23723329884373e+001°)	(-2.32876605328105e+001dB,4.05163014771476e+001°)
1.69824365246174e+001	(-2.08198573280569e+001dB,2.98619567686873e+000°)	(-2.07865843330826e+001dB,6.02305057156269e+000°)	(-2.08286493455978e+001dB,-6.76362649355390e-002°)	(-2.35651042149815e+001dB,4.37618655303430e+001°)	(-2.33959409734726e+001dB,4.17813416139498e+001°)	(-2.32025195009209e+001dB,3.98513387862975e+001°)
1.73780082874937e+001	(-2.08192814995658e+001dB,3.03314304708767e+000°)	(-2.07842858532911e+001dB,6.13978041797301e+000°)	(-2.08286544159971e+001dB,-9.16915845331673e-002°)	(-2.34874679547552e+001dB,4.32514095414601e+001°)	(-2.33163352675857e+001dB,4.11946223493999e+001°)	(-2.31196230461020e+001dB,3.91884750482624e+001°)
1.77827941003892e+001	(-2.08186799222959e+001dB,3.08168554534758e+000°)	(-2.07818816631675e+001dB,6.25966241681895e+000°)	(-2.08286610323390e+001dB,-1.15795487740838e-001°)	(-2.34118752069236e+001dB,4.27476517025862e+001°)	(-2.32388935580777e+001dB,4.06125170607705e+001°)	(-2.30389536302159e+001dB,3.85280277906223e+001°)
1.81970085860998e+001	(-2.08180513319698e+001dB,3.13184798372762e+000°)	(-2.07793668466832e+001dB,6.38275286440308e+000°)	(-2.08286692086508e+001dB,-1.39960745978628e-001°)	(-2.33382947116677e+001dB,4.22509430545601e+001°)	(-2.31635913889593e+001dB,4.00353601184357e+001°)	(-2.29604915921822e+001dB,3.78703074691043e+001°)
1.86208713666287e+001	(-2.08173944081392e+001dB,3.18365596700682e+000°)	(-2.07767362705622e+001dB,6.50910925133189e+000°)	(-2.08286789622665e+001dB,-1.64200163001421e-001°)	(-2.32666932637294e+001dB,4.17616259512926e+001°)	(-2.30904023543846e+001dB,3.94634777659063e+001°)	(-2.28842152268703e+001dB,3.72156167388818e+001°)
1.90546071796325e+001	(-2.08167077714922e+001dB,3.23713590158876e+000°)	(-2.07739845750274e+001dB,6.63879025836345e+000°)	(-2.08286903138642e+001dB,-1.88526581643838e-001°)	(-2.31970358072900e+001dB,4.12800335576606e+001°)	(-2.30192981921737e+001dB,3.88971875395278e+001°)	(-2.28101008709358e+001dB,3.65642497714934e+001°)
1.94984459975804e+001	(-2.08159899810462e+001dB,3.29231500451642e+000°)	(-2.07711061642184e+001dB,6.77185575059345e+000°)	(-2.08287032875095e+001dB,-2.12952890586414e-001°)	(-2.31292855341608e+001dB,4.08064894014644e+001°)	(-2.29502488821681e+001dB,3.83367977413787e+001°)	(-2.27381229949034e+001dB,3.59164916205552e+001°)
1.99526231496888e+001	(-2.08152395312211e+001dB,3.34922131257091e+000°)	(-2.07680951962732e+001dB,6.90836676983672e+000°)	(-2.08287179107066e+001dB,-2.37492031143553e-001°)	(-2.30634039845021e+001dB,4.03413069801379e+001°)	(-2.28832227486439e+001dB,3.77826069670831e+001°)	(-2.26682543007652e+001dB,3.52726176389174e+001°)
2.04173794466953e+001	(-2.08144548487877e+001dB,3.40788369142727e+000°)	(-2.07649455730678e+001dB,7.04838552504982e+000°)	(-2.08287342144564e+001dB,-2.62157004078199e-001°)	(-2.29993511492967e+001dB,3.98847894223833e+001°)	(-2.28181865660026e+001dB,3.72349036897136e+001°)	(-2.26004658243381e+001dB,3.46328929493931e+001°)
2.08929613085404e+001	(-2.08136342896868e+001dB,3.46833184484990e+000°)	(-2.07616509296085e+001dB,7.19197538063193e+000°)	(-2.08287522333222e+001dB,-2.86960876446687e-001°)	(-2.29370855738188e+001dB,3.94372292043973e+001°)	(-2.27551056669610e+001dB,3.66939659004452e+001°)	(-2.25347270416093e+001dB,3.39975719706470e+001°)
2.13796208950223e+001	(-2.08127761357117e+001dB,3.53059632390152e+000°)	(-2.07582046230718e+001dB,7.33920084243266e+000°)	(-2.08287720055029e+001dB,-3.11916788476056e-001°)	(-2.28765644613650e+001dB,3.89989079198869e+001°)	(-2.26939440524676e+001dB,3.61600608061012e+001°)	(-2.24710059782945e+001dB,3.33668979993082e+001°)
2.18776162394955e+001	(-2.08118785910512e+001dB,3.59470853614777e+000°)	(-2.07545997214869e+001dB,7.49012754128514e+000°)	(-2.08287935729135e+001dB,-3.37037960478248e-001°)	(-2.28177437765425e+001dB,3.85700961026259e+001°)	(-2.26346645025971e+001dB,3.56334445832571e+001°)	(-2.24092693218360e+001dB,3.27411028488461e+001°)
2.23872113856834e+001	(-2.08109397786845e+001dB,3.66070075482211e+000°)	(-2.07508289920592e+001dB,7.64482221387231e+000°)	(-2.08288169812745e+001dB,-3.62337699803757e-001°)	(-2.27605783474475e+001dB,3.81510530998987e+001°)	(-2.25772286876929e+001dB,3.51143621881050e+001°)	(-2.23494825350806e+001dB,3.21204065452526e+001°)
2.29086765276777e+001	(-2.08099577366236e+001dB,3.72860612793041e+000°)	(-2.07468848891301e+001dB,7.80335268072633e+000°)	(-2.08288422802079e+001dB,-3.87829407839749e-001°)	(-2.27050219661098e+001dB,3.77420269948083e+001°)	(-2.25215972790648e+001dB,3.46030472208578e+001°)	(-2.22916099708963e+001dB,3.15050170790906e+001°)
2.34422881531992e+001	(-2.08089304139974e+001dB,3.79845868726139e+000°)	(-2.07427595417743e+001dB,7.96578782114627e+000°)	(-2.08288695233426e+001dB,-4.13526587053635e-001°)	(-2.26510274866230e+001dB,3.73432545750988e+001°)	(-2.24677300585824e+001dB,3.40997218430870e+001°)	(-2.22356149870153e+001dB,3.08951302130304e+001°)
2.39883291901949e+001	(-2.08078556669696e+001dB,3.87029335726564e+000°)	(-2.07384447410323e+001dB,8.13219754481351e+000°)	(-2.08288987684277e+001dB,-4.39442848087869e-001°)	(-2.25985469204329e+001dB,3.69549613458572e+001°)	(-2.24155860265501e+001dB,3.36045967460351e+001°)	(-2.21814600604228e+001dB,3.02909293435704e+001°)
2.45470891568503e+001	(-2.08067312544855e+001dB,3.94414596377707e+000°)	(-2.07339319267816e+001dB,8.30265275986833e+000°)	(-2.08289300774549e+001dB,-4.65591916907913e-001°)	(-2.25475315283049e+001dB,3.65773615832177e+001°)	(-2.23651235072936e+001dB,3.31178711676439e+001°)	(-2.21291069006508e+001dB,2.96925854152746e+001°)
2.51188643150958e+001	(-2.08055548338404e+001dB,4.02005324252808e+000°)	(-2.07292121742474e+001dB,8.47722533720396e+000°)	(-2.08289635167895e+001dB,-4.91987642007669e-001°)	(-2.24979319085503e+001dB,3.62106584259941e+001°)	(-2.23163002519369e+001dB,3.26397329557690e+001°)	(-2.20785165613800e+001dB,2.91002568855168e+001°)
2.57039578276886e+001	(-2.08043239560627e+001dB,4.09805284742429e+000°)	(-2.07242761801597e+001dB,8.65598807071955e+000°)	(-2.08289991573107e+001dB,-5.18644001675325e-001°)	(-2.24496980811394e+001dB,3.58550440020066e+001°)	(-2.22690735379016e+001dB,3.21703586748377e+001°)	(-2.20296495497980e+001dB,2.85140897374300e+001°)
2.63026799189538e+001	(-2.08030360611049e+001dB,4.17818335853029e+000°)	(-2.07191142485616e+001dB,8.83901463326569e+000°)	(-2.08290370745617e+001dB,-5.45575111323350e-001°)	(-2.24027795673906e+001dB,3.55106995857585e+001°)	(-2.22234002647116e+001dB,3.17099137530238e+001°)	(-2.19824659332140e+001dB,2.79342175385123e+001°)
2.69153480392691e+001	(-2.08016884728360e+001dB,4.26048428972102e+000°)	(-2.07137162762781e+001dB,9.02637952799997e+000°)	(-2.08290773489093e+001dB,-5.72795230886425e-001°)	(-2.23571254649755e+001dB,3.51777957840357e+001°)	(-2.21792370457383e+001dB,3.12585526668840e+001°)	(-2.19369254424824e+001dB,2.73607615421319e+001°)
2.75422870333816e+001	(-2.08002783938269e+001dB,4.34499609594525e+000°)	(-2.07080717380574e+001dB,9.21815803486363e+000°)	(-2.08291200657139e+001dB,-6.00318772289683e-001°)	(-2.23126845180333e+001dB,3.48564927459664e+001°)	(-2.21365402955760e+001dB,3.08164191602977e+001°)	(-2.18929875718363e+001dB,2.67938308290103e+001°)
2.81838293126445e+001	(-2.07988028999223e+001dB,4.43176018004897e+000°)	(-2.07021696713966e+001dB,9.41442615187505e+000°)	(-2.08291653155103e+001dB,-6.28160306992853e-001°)	(-2.22694051822406e+001dB,3.45469403940689e+001°)	(-2.20952663127883e+001dB,3.03836464944996e+001°)	(-2.18506116747914e+001dB,2.62335224856428e+001°)
2.88403150312660e+001	(-2.07972589345922e+001dB,4.52081889909712e+000°)	(-2.06959986610699e+001dB,9.61526053092692e+000°)	(-2.08292131941986e+001dB,-6.56334573611465e-001°)	(-2.22272356847318e+001dB,3.42492786728404e+001°)	(-2.20553713578154e+001dB,2.99603577259734e+001°)	(-2.18097570558271e+001dB,2.56799218165316e+001°)
2.95120922666638e+001	(-2.07956433030537e+001dB,4.61221557013099e+000°)	(-2.06895468233775e+001dB,9.82073840776208e+000°)	(-2.08292638032470e+001dB,-6.84856485620181e-001°)	(-2.21861240788121e+001dB,3.39636378114919e+001°)	(-2.20168117258819e+001dB,2.95466660089760e+001°)	(-2.17703830576083e+001dB,2.51331025870627e+001°)
3.01995172040201e+001	(-2.07939526661572e+001dB,4.70599447529603e+000°)	(-2.06828017901394e+001dB,1.00309375257946e+001°)	(-2.08293172499070e+001dB,-7.13741139141788e-001°)	(-2.21460182934494e+001dB,3.36901385975103e+001°)	(-2.19795438147897e+001dB,2.91426749195158e+001°)	(-2.17324491435577e+001dB,2.45931272938500e+001°)
3.09029543251359e+001	(-2.07921835340284e+001dB,4.80220086626321e+000°)	(-2.06757506924586e+001dB,1.02459360534289e+001°)	(-2.08293736474390e+001dB,-7.43003820824293e-001°)	(-2.21068661775732e+001dB,3.34288926578250e+001°)	(-2.19435241875244e+001dB,2.87484787976578e+001°)	(-2.16959149756382e+001dB,2.40600474593878e+001°)
3.16227766016838e+001	(-2.07903322594590e+001dB,4.90088096787151e+000°)	(-2.06683801442862e+001dB,1.04658124945279e+001°)	(-2.08294331153523e+001dB,-7.72660015811198e-001°)	(-2.20686155392473e+001dB,3.31800027444754e+001°)	(-2.19087096296427e+001dB,2.83641631051318e+001°)	(-2.16607404872495e+001dB,2.35339039479084e+001°)
3.23593656929628e+001	(-2.07883950310375e+001dB,5.00208198090550e+000°)	(-2.06606762258216e+001dB,1.06906455916645e+001°)	(-2.08294957796577e+001dB,-8.02725415807073e-001°)	(-2.20312141798168e+001dB,3.29435630218035e+001°)	(-2.18750572014456e+001dB,2.79898047953160e+001°)	(-2.16268859511851e+001dB,2.30147272994169e+001°)
3.31131121482591e+001	(-2.07863678660133e+001dB,5.10585208392101e+000°)	(-2.06526244667872e+001dB,1.09205142217922e+001°)	(-2.08295617731331e+001dB,-8.33215927243577e-001°)	(-2.19946099231654e+001dB,3.27196593523395e+001°)	(-2.18425242849762e+001dB,2.76254726927980e+001°)	(-2.15943120426371e+001dB,2.25025380789705e+001°)
3.38844156139202e+001	(-2.07842466028858e+001dB,5.21224043402503e+000°)	(-2.06442098296220e+001dB,1.11554972839586e+001°)	(-2.08296312356044e+001dB,-8.64147679547586e-001°)	(-2.19587506402433e+001dB,3.25083695787031e+001°)	(-2.18110686259099e+001dB,2.72712278798518e+001°)	(-2.15629798972684e+001dB,2.19973472383925e+001°)
3.46736850452531e+001	(-2.07820268937115e+001dB,5.32129716650899e+000°)	(-2.06354166926419e+001dB,1.13956735786879e+001°)	(-2.08297043142408e+001dB,-8.95537033517310e-001°)	(-2.19235842690579e+001dB,3.23097637990016e+001°)	(-2.17806483704329e+001dB,2.69271240873112e+001°)	(-2.15328511644094e+001dB,2.14991564877394e+001°)
3.54813389233575e+001	(-2.07797041961211e+001dB,5.43307339323089e+000°)	(-2.06262288332238e+001dB,1.16411216786510e+001°)	(-2.08297811638652e+001dB,-9.27400589807653e-001°)	(-2.18890588303372e+001dB,3.21239046333708e+001°)	(-2.17512220972265e+001dB,2.65932080874826e+001°)	(-2.15038880554612e+001dB,2.10079586739877e+001°)
3.63078054770101e+001	(-2.07772737650393e+001dB,5.54762119962752e+000°)	(-2.06166294110710e+001dB,1.18919197902448e+001°)	(-2.08298619472814e+001dB,-9.59755197530639e-001°)	(-2.18551224391002e+001dB,3.19508474794749e+001°)	(-2.17227488446966e+001dB,2.62695200868874e+001°)	(-2.14760533876156e+001dB,2.05237381645612e+001°)
3.71535229097172e+001	(-2.07747306441013e+001dB,5.66499364024330e+000°)	(-2.06066009516290e+001dB,1.21481456057057e+001°)	(-2.08299468356172e+001dB,-9.92617962972530e-001°)	(-2.18217233123859e+001dB,3.17906407549485e+001°)	(-2.16951881336042e+001dB,2.59560941167956e+001°)	(-2.14493106230243e+001dB,2.00464712334801e+001°)
3.80189396320561e+001	(-2.07720696567575e+001dB,5.78524473264154e+000°)	(-2.05961253297246e+001dB,1.24098761453864e+001°)	(-2.08300360086861e+001dB,-1.02600625843288e+000°)	(-2.17888097734053e+001dB,3.16433261249380e+001°)	(-2.16684999852660e+001dB,2.56529584196637e+001°)	(-2.14236239035676e+001dB,1.95761264480831e+001°)
3.89045144994280e+001	(-2.07692853970621e+001dB,5.90842944956390e+000°)	(-2.05851837535068e+001dB,1.26771875898324e+001°)	(-2.08301296553661e+001dB,-1.05993773118754e+000°)	(-2.17563302523996e+001dB,3.15089387130629e+001°)	(-2.16426449355059e+001dB,2.53601358297541e+001°)	(-2.13989580813910e+001dB,1.91126650544351e+001°)
3.98107170553497e+001	(-2.07663722201372e+001dB,6.03460370919625e+000°)	(-2.05737567487794e+001dB,1.29501551013097e+001°)	(-2.08302279739983e+001dB,-1.09443031258127e+000°)	(-2.17242332844928e+001dB,3.13875072942901e+001°)	(-2.16175840445489e+001dB,2.50776441463677e+001°)	(-2.13752787453888e+001dB,1.86560413597082e+001°)
